! File created by NanoVNA (https://gen111.taobao.com/)
! Start 10000000Hz  Stop 290000000Hz   Points 101
# HZ S MA R 50
!S - Parameter data, F S11
10000000	0.886622058	75.806693108
12800000	0.908695112	1.103251284
15600000	0.921382858	-75.458167561
18400000	0.891477321	-156.337306572
21200000	0.869320301	123.128781925
24000000	0.894252626	46.812827400
26800000	0.919723209	-28.367966344
29600000	0.893297808	-106.812936939
32400000	0.857238853	172.195213609
35200000	0.877270117	93.008581803
38000000	0.917132424	16.648212590
40800000	0.901175188	-60.348046325
43600000	0.850857619	-139.677731801
46400000	0.853846820	140.331704096
49200000	0.902568693	62.261591289
52000000	0.903274385	-14.790788998
54800000	0.847144705	-92.391873954
57600000	0.828302169	-171.079199088
60400000	0.872195011	110.120134653
63200000	0.892158695	31.680434504
66000000	0.840898773	-46.000309789
68800000	0.802526390	-123.337858709
71600000	0.831654062	158.626759561
74400000	0.865007750	78.761241961
77200000	0.824230553	-1.313942176
80000000	0.778918183	-79.038111982
82800000	0.795323703	-154.897499284
85600000	0.833705696	127.299924580
88400000	0.806262704	46.504032882
91200000	0.753237422	-32.908352473
94000000	0.758914433	-108.494195709
96800000	0.799874397	175.567371729
99600000	0.785700115	94.320320844
102400000	0.731021206	11.425438835
105200000	0.733735191	-65.545046027
108000000	0.778072862	-138.255037791
110800000	0.777758172	144.461232218
113600000	0.717742310	60.242165935
116400000	0.710748383	-20.848492314
119200000	0.762868276	-93.548248349
122000000	0.782359784	-166.458930176
124800000	0.721618236	111.512783384
127600000	0.694864826	25.882939251
130400000	0.754190492	-50.047056677
133200000	0.798288382	-120.030071778
136000000	0.749358240	163.730743862
138800000	0.692360544	77.556676053
141600000	0.745351535	-4.221992100
144400000	0.812359342	-75.494489327
147200000	0.785943223	-147.625823629
150000000	0.706332386	129.112431393
152800000	0.738095686	42.354990519
155600000	0.827128851	-32.312425166
158400000	0.828517737	-101.361585776
161200000	0.741616384	-177.699687230
164000000	0.725365800	94.528403884
166800000	0.821107325	12.304181378
169600000	0.850608349	-59.398440214
172400000	0.778333427	-131.314446808
175200000	0.728771578	147.205289347
178000000	0.799981657	62.673353433
180800000	0.854187768	-13.057103266
183600000	0.797103132	-84.222714613
186400000	0.728240299	-160.595185572
189200000	0.764248483	115.075229462
192000000	0.829975884	33.451646946
194800000	0.791507185	-40.970226050
197600000	0.724891731	-113.621780382
200400000	0.731744552	168.434723103
203200000	0.786196077	85.848986856
206000000	0.759700362	4.779448762
208800000	0.697438074	-71.072396548
211600000	0.700341136	-145.366370911
214400000	0.750545815	136.975797076
217200000	0.731120465	54.203270720
220000000	0.660292912	-27.010656078
222800000	0.660961937	-102.256515631
225600000	0.715115931	-175.832501914
228400000	0.708522171	103.333878647
231200000	0.626887503	17.143305801
234000000	0.625215995	-61.330239079
236800000	0.689445104	-130.484877549
239600000	0.706967562	156.745823626
242400000	0.611082952	70.506032520
245200000	0.582921930	-17.803158824
248000000	0.663370401	-90.271031468
250800000	0.717590819	-156.745223356
253600000	0.637162522	125.235395995
256400000	0.552864416	32.443641343
259200000	0.634094861	-48.741143382
262000000	0.725367079	-114.363977728
264800000	0.687148882	176.040781776
267600000	0.558447190	87.084141386
270400000	0.606096547	-4.786442869
273200000	0.733201481	-74.721627269
276000000	0.744781126	-139.186085803
278800000	0.611693761	142.082045286
281600000	0.586847358	45.877331466
284400000	0.733204038	-32.807555373
287200000	0.793381587	-97.211946738
290000000	0.685420792	-167.579165938
