! File created by NanoVNA (https://gen111.taobao.com/)
! Start 10000000Hz  Stop 290000000Hz   Points 101
# HZ S MA R 50
!S - Parameter data, F S11
10000000	0.996622048	-28.421693410
12800000	1.005683450	-36.963032771
15600000	1.013199932	-45.621763549
18400000	1.018564737	-54.412297572
21200000	1.022764259	-63.319752424
24000000	1.023940610	-72.322750664
26800000	1.022894045	-81.403593674
29600000	1.018306032	-90.584926440
32400000	1.011807716	-99.775282304
35200000	1.003714736	-108.990339641
38000000	0.994560144	-118.131274375
40800000	0.985052912	-127.259808587
43600000	0.975952092	-136.293988979
46400000	0.967180203	-145.303118449
49200000	0.959631490	-154.197101303
52000000	0.956750525	-162.915655392
54800000	0.957579516	-171.626337963
57600000	0.960034986	179.710688844
60400000	0.963261020	171.117972022
63200000	0.967591380	162.772803258
66000000	0.975549567	154.341961423
68800000	0.983129131	145.893211321
71600000	0.989338778	137.423773397
74400000	0.995815861	129.107221446
77200000	1.001672368	120.628308136
80000000	1.002419169	112.075391856
82800000	1.000377184	103.567315015
85600000	0.995042165	94.983452880
88400000	0.985490198	86.323260104
91200000	0.973803714	77.540341790
94000000	0.959124990	68.625264906
96800000	0.942905413	59.660932692
99600000	0.924162013	50.647587275
102400000	0.907387211	41.635461828
105200000	0.892240952	32.584970279
108000000	0.878232555	23.610476977
110800000	0.868078610	14.552690994
113600000	0.861866358	5.571528483
116400000	0.859365977	-3.380099498
119200000	0.861349171	-12.249997891
122000000	0.866849691	-21.046859783
124800000	0.875844825	-29.738744455
127600000	0.886513458	-38.336698737
130400000	0.899158074	-46.753991095
133200000	0.914918562	-55.028241307
136000000	0.932276883	-63.243114313
138800000	0.949065982	-71.562885774
141600000	0.965334265	-79.799350059
144400000	0.979355157	-88.276865037
147200000	0.988889790	-96.890161967
150000000	0.991527284	-105.555793310
152800000	0.992821984	-114.357069503
155600000	0.987930995	-123.248585573
158400000	0.979356927	-132.208712491
161200000	0.968630538	-141.240074491
164000000	0.956755700	-150.245487661
166800000	0.946556950	-159.255751901
169600000	0.937186651	-168.279475488
172400000	0.930879687	-177.291281628
175200000	0.929253653	173.947036718
178000000	0.931221859	165.147005176
180800000	0.937504207	156.644333429
183600000	0.948214373	148.230060399
186400000	0.961554093	139.948195887
189200000	0.976570303	131.891923938
192000000	0.991474362	123.971456693
194800000	1.005624193	116.135030967
197600000	1.017538824	108.374113713
200400000	1.025093524	100.678097765
203200000	1.027595878	93.088419800
206000000	1.028942615	85.363767191
208800000	1.021852594	77.434325942
211600000	1.010594848	69.518061122
214400000	0.993173132	61.332044724
217200000	0.971611964	52.949687039
220000000	0.947537535	44.210689903
222800000	0.917982292	35.292910035
225600000	0.890727475	26.123736274
228400000	0.863633543	16.686580287
231200000	0.836610769	6.927286915
234000000	0.814452331	-2.802698087
236800000	0.799422584	-12.784669273
239600000	0.788233496	-22.780264397
242400000	0.784108551	-32.656800930
245200000	0.788106504	-42.407715046
248000000	0.795556153	-52.029476533
250800000	0.809975948	-61.387056493
253600000	0.827551594	-70.464381814
256400000	0.847980954	-79.199019790
259200000	0.868542344	-87.832200058
262000000	0.891598318	-96.320710219
264800000	0.909843515	-104.547690455
267600000	0.928151909	-112.951550529
270400000	0.943186549	-121.211440814
273200000	0.953879369	-129.500590346
276000000	0.957825904	-137.936258255
278800000	0.956031673	-146.538364544
281600000	0.947699803	-155.205155513
284400000	0.937574829	-163.944802806
287200000	0.924562936	-172.736135509
290000000	0.909396479	178.282005495
