! File created by NanoVNA (https://gen111.taobao.com/)
! Start 1000000Hz  Stop 295000000Hz   Points 101
# HZ S MA R 50
!S - Parameter data, F S11
1000000	0.944108548	-2.689937606
3940000	0.952945094	-11.255918096
6880000	0.962335346	-20.064767043
9820000	0.971960505	-29.052978423
12760000	0.981861462	-38.196256625
15700000	0.991698182	-47.442100457
18640000	0.999382765	-56.883434637
21580000	1.006639328	-66.331094280
24520000	1.011091884	-75.897827674
27460000	1.014113423	-85.517999953
30400000	1.013913147	-95.073097664
33340000	1.011310126	-104.627718261
36280000	1.007153563	-114.069245181
39220000	1.002244025	-123.422683710
42160000	0.995863776	-132.669099359
45100000	0.988560757	-141.826138785
48040000	0.982059031	-150.861416140
50980000	0.975333877	-159.792784612
53920000	0.970559581	-168.638863056
56860000	0.968015948	-177.513770521
59800000	0.965338957	173.598912146
62740000	0.963649016	164.717050417
65680000	0.963961396	155.873806101
68620000	0.965544597	146.798211738
71560000	0.966465225	137.662461062
74500000	0.968124703	128.414041156
77440000	0.970613883	119.040972149
80380000	0.970685009	109.637470695
83320000	0.969310467	100.222612830
86260000	0.966795540	90.718856163
89200000	0.960933112	81.139645599
92140000	0.955419812	71.615966724
95080000	0.948152518	62.102096186
98020000	0.939358832	52.678913153
100960000	0.930438523	43.403791252
103900000	0.921958301	34.312076348
106840000	0.914733475	25.271729039
109780000	0.907629113	16.530596963
112720000	0.903640950	7.722630481
115660000	0.899750853	-1.002458244
118600000	0.898168770	-9.603919412
121540000	0.899579543	-18.189671540
124480000	0.903290816	-26.785740588
127420000	0.908590345	-35.413834449
130360000	0.915839934	-44.096603107
133300000	0.925184334	-52.849448945
136240000	0.936344496	-61.747047091
139180000	0.947039417	-70.839749411
142120000	0.957733757	-80.139292422
145060000	0.966167684	-89.456630309
148000000	0.973593680	-98.957036246
150940000	0.977216459	-108.487687083
153880000	0.977460621	-118.063203994
156820000	0.975472515	-127.621661024
159760000	0.970634384	-136.975616016
162700000	0.965147479	-146.216396107
165640000	0.958806071	-155.295744608
168580000	0.953297729	-164.413237241
171520000	0.946591473	-173.400082657
174460000	0.940618279	177.670352077
177400000	0.936865140	168.868591680
180340000	0.932664321	160.078844168
183280000	0.928411649	151.234963312
186220000	0.927704475	142.469218391
189160000	0.927839614	133.609653253
192100000	0.932044987	124.593599955
195040000	0.935890822	115.523641679
197980000	0.939394299	106.264842157
200920000	0.944056681	96.955274228
203860000	0.945250333	87.378929398
206800000	0.945991277	77.857096926
209740000	0.948241177	68.171883349
212680000	0.944265497	58.435062677
215620000	0.938899215	48.761039547
218560000	0.932665371	39.311668646
221500000	0.925342882	29.834111104
224440000	0.918312492	20.550802480
227380000	0.911264789	11.375939476
230320000	0.903408547	2.396146576
233260000	0.897458307	-6.536546251
236200000	0.893500007	-15.291431798
239140000	0.889699522	-23.998619122
242080000	0.887200311	-32.576546739
245020000	0.887237603	-41.152395816
247960000	0.889582377	-49.658256218
250900000	0.894534710	-58.359933795
253840000	0.899918099	-66.931594917
256780000	0.907428504	-75.801591935
259720000	0.915885624	-84.707367174
262660000	0.925263867	-93.769984545
265600000	0.934569100	-103.004838739
268540000	0.941243430	-112.281584199
271480000	0.946374631	-121.771330180
274420000	0.949531604	-131.359177797
277360000	0.948085340	-140.868114510
280300000	0.946051102	-150.391598940
283240000	0.940983086	-159.875716037
286180000	0.933724020	-169.212631761
289120000	0.924361007	-178.318469183
292060000	0.915436511	172.662279342
295000000	0.906673070	163.881022370
