! File created by NanoVNA (https://gen111.taobao.com/)
! Start 10000000Hz  Stop 300000000Hz   Points 101
# HZ S MA R 50
!S - Parameter data, F S11

10000000	0.941878815	2.304069302
12900000	0.952609499	2.791684778
15800000	0.954181800	3.317123397
18700000	0.951259688	3.790607091
21600000	0.963600413	4.172651436
24500000	0.966008491	4.626838340
27400000	0.962222622	5.029769552
30300000	0.975450387	5.346231981
33200000	0.978755825	5.725148112
36100000	0.972992187	6.023123147
39000000	0.987664558	6.204243427
41900000	0.991834383	6.453662599
44800000	0.986434936	6.652794430
47700000	0.999058094	6.780063017
50600000	1.004638845	6.941965502
53500000	0.999670274	7.040627881
56400000	1.009304665	7.053712176
59300000	1.015002863	7.092522245
62200000	1.010570784	7.108462034
65100000	1.017418300	7.035208309
68000000	1.023231803	7.027740066
70900000	1.018567945	6.979545380
73800000	1.022129090	6.836184085
76700000	1.027545767	6.756273276
79600000	1.022374671	6.667672140
82500000	1.022297222	6.483816437
85400000	1.028043747	6.354267363
88300000	1.022988473	6.230409184
91200000	1.019877747	6.029559853
94100000	1.024808470	5.892743657
97000000	1.019210214	5.771632639
99900000	1.012829047	5.583442735
102800000	1.017044422	5.445374162
105700000	1.010482486	5.344429765
108600000	1.000422745	5.157414699
111500000	1.005945739	5.092590880
114400000	0.999971012	5.043974351
117300000	0.987178792	4.928881384
120200000	0.992970254	4.922605884
123100000	0.988093988	4.994921553
126000000	0.972811223	4.991108350
128900000	0.978775807	5.072448616
131800000	0.975065870	5.195826404
134700000	0.961879370	5.341183881
137600000	0.965232632	5.500952238
140500000	0.963150308	5.805795038
143400000	0.949973348	6.024353300
146300000	0.952804196	6.275725866
149200000	0.953286578	6.581903776
152100000	0.942338185	6.925390365
155000000	0.944053691	7.245738155
157900000	0.947106972	7.718706051
160800000	0.938195598	8.170493649
163700000	0.938273539	8.549078376
166600000	0.942813712	9.058855669
169500000	0.937412723	9.602139695
172400000	0.936998298	10.030562714
175300000	0.943631324	10.531935989
178200000	0.940735167	11.081331366
181100000	0.939853243	11.569256357
184000000	0.948948095	12.116223547
186900000	0.948120411	12.717802261
189800000	0.945932751	13.222844797
192700000	0.958452837	13.718812274
195600000	0.960970112	14.273534924
198500000	0.958180149	14.782626839
201400000	0.972108255	15.197061646
204300000	0.976102380	15.701577976
207200000	0.972066986	16.201980500
210100000	0.987806012	16.506417936
213000000	0.994637871	16.989683183
215900000	0.991327172	17.444234410
218800000	1.007248181	17.694202219
221700000	1.014332225	17.962839889
224600000	1.012870049	18.330243272
227500000	1.025367332	18.561557162
230400000	1.034274736	18.792859783
233300000	1.033431669	19.111062760
236200000	1.044133816	19.219700469
239100000	1.053813722	19.344865484
242000000	1.053096928	19.456016898
244900000	1.062001938	19.420874040
247800000	1.070488290	19.558340125
250700000	1.069220122	19.604592850
253600000	1.073451833	19.545270998
256500000	1.083688335	19.490165701
259400000	1.080740645	19.438670210
262300000	1.082234325	19.312500610
265200000	1.089672208	19.219197185
268100000	1.087776344	19.146269778
271000000	1.084372418	18.980075583
273900000	1.091636172	18.845955496
276800000	1.087241190	18.736755920
279700000	1.080785017	18.542267161
282600000	1.086078021	18.412912884
285500000	1.080664986	18.236345800
288400000	1.068743097	18.051167699
291300000	1.074139730	17.906799447
294200000	1.067570694	17.824326179
297100000	1.050803264	17.686637476
300000000	0.979698487	19.123302770
