! File created by NanoVNA (https://gen111.taobao.com/)
! Start 1000000Hz  Stop 300000000Hz   Points 101
# HZ S MA R 50
!S - Parameter data, F S11
1000000	0.932028025	-0.989644082
3990000	0.943822418	-2.562953709
6980000	0.946780328	-3.946309118
9970000	0.944095842	-5.651631544
12960000	0.955408936	-7.551551471
15950000	0.956513427	-9.403941951
18940000	0.956774333	-11.402335708
21930000	0.969156890	-13.412446812
24920000	0.971150775	-15.414259951
27910000	0.971073283	-17.573858189
30900000	0.983651174	-19.757039023
33890000	0.985751307	-21.915393493
36880000	0.985017897	-24.210414006
39870000	0.996962518	-26.608706574
42860000	0.998422346	-28.963084548
45850000	0.996679412	-31.423283938
48840000	1.007671007	-33.897991351
51830000	1.007636123	-36.354446771
54820000	1.004352351	-38.938542644
57810000	1.013835400	-41.513023113
60800000	1.012301128	-44.065890483
63790000	1.007197151	-46.708781367
66780000	1.014760512	-49.280046109
69770000	1.011317940	-51.806710855
72760000	1.004203513	-54.396666597
75750000	1.008912448	-56.921845283
78740000	1.003610097	-59.433254161
81730000	0.995561708	-61.977267752
84720000	1.000573082	-64.403144369
87710000	0.995481447	-66.702696909
90700000	0.987104199	-69.050219083
93690000	0.991034246	-71.268386712
96680000	0.985374643	-73.433544926
99670000	0.975851471	-75.595438336
102660000	0.979997132	-77.662945639
105650000	0.974611276	-79.665176736
108640000	0.964730102	-81.681429793
111630000	0.969792303	-83.616467680
114620000	0.965241864	-85.462218730
117610000	0.956983680	-87.319365949
120600000	0.963372546	-89.077631392
123590000	0.959468835	-90.763155836
126580000	0.952196047	-92.503279853
129570000	0.959934495	-94.170457372
132560000	0.957916085	-95.780355501
135550000	0.951669572	-97.478125349
138540000	0.960892115	-99.029263958
141530000	0.959990975	-100.590889580
144520000	0.954553006	-102.239237896
147510000	0.965898247	-103.860835507
150500000	0.966958772	-105.440065815
153490000	0.962596894	-107.139851805
156480000	0.974623325	-108.807959931
159470000	0.977600221	-110.453802324
162460000	0.972774114	-112.201604147
165450000	0.987085292	-114.060110273
168440000	0.988892318	-115.823593555
171430000	0.984824899	-117.689378694
174420000	0.998860836	-119.658371346
177410000	1.001442513	-121.577329397
180400000	0.995895334	-123.605375669
183390000	1.009658491	-125.710419806
186380000	1.011756617	-127.754250667
189370000	1.005482185	-129.935543278
192360000	1.017753423	-132.215486535
195350000	1.018269771	-134.407600561
198340000	1.010817313	-136.635660594
201330000	1.021370147	-139.033307588
204320000	1.020714657	-141.314927676
207310000	1.011428648	-143.613093600
210300000	1.020158052	-146.038274964
213290000	1.018273256	-148.304546992
216280000	1.007452901	-150.605345586
219270000	1.014933897	-153.054230578
222260000	1.012301007	-155.340213316
225250000	1.000808907	-157.504569110
228240000	1.008225791	-159.852588929
231230000	1.004550650	-162.040704245
234220000	0.992955202	-164.209418818
237210000	0.998590440	-166.488590877
240200000	0.997063137	-168.542404986
243190000	0.985798990	-170.621445424
246180000	0.993022624	-172.763685545
249170000	0.991130456	-174.809138193
252160000	0.980766030	-176.761059357
255150000	0.988397290	-178.781012001
258140000	0.987310967	179.229341072
261130000	0.977807736	177.346808867
264120000	0.985550943	175.343381365
267110000	0.984934899	173.457840136
270100000	0.976169325	171.602795453
273090000	0.985706552	169.620913857
276080000	0.986261858	167.769524972
279070000	0.977947762	165.887695318
282060000	0.987566641	163.901626147
285050000	0.988641100	162.022996133
288040000	0.980335532	160.077682141
291030000	0.990571369	158.096696970
294020000	0.992949527	156.125833565
297010000	0.982075275	154.146620402
300000000	0.919223903	153.982217077
